# Hz S MA 50
0.000000E+00		2.662836E-05	1.617909E-08		1.000000E+00	0.000000E+00		1.000000E+00	0.000000E+00		1.000000E+00	0.000000E+00		
		9.999763E-01	-1.468065E-11		1.000000E+00	0.000000E+00		1.000000E+00	0.000000E+00		1.000000E+00	0.000000E+00		
		3.630141E-05	-1.008677E-08		1.000000E+00	0.000000E+00		1.000000E+00	0.000000E+00		1.000000E+00	0.000000E+00		
		2.776994E-05	1.800002E+02		1.000000E+00	0.000000E+00		1.000000E+00	0.000000E+00		1.000000E+00	0.000000E+00		

2.499994E+07		1.115938E-02	8.732268E+01		1.000000E+00	0.000000E+00		1.000000E+00	0.000000E+00		1.000000E+00	0.000000E+00		
		9.997225E-01	-1.848731E+00		1.000000E+00	0.000000E+00		1.000000E+00	0.000000E+00		1.000000E+00	0.000000E+00		
		1.815029E-02	8.760698E+01		1.000000E+00	0.000000E+00		1.000000E+00	0.000000E+00		1.000000E+00	0.000000E+00		
		7.536089E-03	-9.436308E+01		1.000000E+00	0.000000E+00		1.000000E+00	0.000000E+00		1.000000E+00	0.000000E+00		

4.999988E+07		2.226725E-02	8.485552E+01		1.000000E+00	0.000000E+00		1.000000E+00	0.000000E+00		1.000000E+00	0.000000E+00		
		9.989645E-01	-3.694550E+00		1.000000E+00	0.000000E+00		1.000000E+00	0.000000E+00		1.000000E+00	0.000000E+00		
		3.622826E-02	8.539055E+01		1.000000E+00	0.000000E+00		1.000000E+00	0.000000E+00		1.000000E+00	0.000000E+00		
		1.504387E-02	-9.840484E+01		1.000000E+00	0.000000E+00		1.000000E+00	0.000000E+00		1.000000E+00	0.000000E+00		

7.499981E+07		3.327331E-02	8.235359E+01		1.000000E+00	0.000000E+00		1.000000E+00	0.000000E+00		1.000000E+00	0.000000E+00		
		9.977128E-01	-5.534610E+00		1.000000E+00	0.000000E+00		1.000000E+00	0.000000E+00		1.000000E+00	0.000000E+00		
		5.416329E-02	8.314587E+01		1.000000E+00	0.000000E+00		1.000000E+00	0.000000E+00		1.000000E+00	0.000000E+00		
		2.249593E-02	-1.025074E+02		1.000000E+00	0.000000E+00		1.000000E+00	0.000000E+00		1.000000E+00	0.000000E+00		

9.999975E+07		4.412919E-02	7.985623E+01		1.000000E+00	0.000000E+00		1.000000E+00	0.000000E+00		1.000000E+00	0.000000E+00		
		9.959843E-01	-7.366192E+00		1.000000E+00	0.000000E+00		1.000000E+00	0.000000E+00		1.000000E+00	0.000000E+00		
		7.188752E-02	8.090629E+01		1.000000E+00	0.000000E+00		1.000000E+00	0.000000E+00		1.000000E+00	0.000000E+00		
		2.986613E-02	-1.066132E+02		1.000000E+00	0.000000E+00		1.000000E+00	0.000000E+00		1.000000E+00	0.000000E+00		

1.249997E+08		5.478971E-02	7.737561E+01		1.000000E+00	0.000000E+00		1.000000E+00	0.000000E+00		1.000000E+00	0.000000E+00		
		9.938023E-01	-9.186756E+00		1.000000E+00	0.000000E+00		1.000000E+00	0.000000E+00		1.000000E+00	0.000000E+00		
		8.933765E-02	7.868236E+01		1.000000E+00	0.000000E+00		1.000000E+00	0.000000E+00		1.000000E+00	0.000000E+00		
		3.713018E-02	-1.107067E+02		1.000000E+00	0.000000E+00		1.000000E+00	0.000000E+00		1.000000E+00	0.000000E+00		

1.499996E+08		6.521320E-02	7.491911E+01		1.000000E+00	0.000000E+00		1.000000E+00	0.000000E+00		1.000000E+00	0.000000E+00		
		9.911954E-01	-1.099400E+01		1.000000E+00	0.000000E+00		1.000000E+00	0.000000E+00		1.000000E+00	0.000000E+00		
		1.064554E-01	7.648059E+01		1.000000E+00	0.000000E+00		1.000000E+00	0.000000E+00		1.000000E+00	0.000000E+00		
		4.426623E-02	-1.147794E+02		1.000000E+00	0.000000E+00		1.000000E+00	0.000000E+00		1.000000E+00	0.000000E+00		

1.749996E+08		7.536262E-02	7.249263E+01		1.000000E+00	0.000000E+00		1.000000E+00	0.000000E+00		1.000000E+00	0.000000E+00		
		9.881972E-01	-1.278588E+01		1.000000E+00	0.000000E+00		1.000000E+00	0.000000E+00		1.000000E+00	0.000000E+00		
		1.231887E-01	7.430627E+01		1.000000E+00	0.000000E+00		1.000000E+00	0.000000E+00		1.000000E+00	0.000000E+00		
		5.125497E-02	-1.188249E+02		1.000000E+00	0.000000E+00		1.000000E+00	0.000000E+00		1.000000E+00	0.000000E+00		

1.999995E+08		8.520538E-02	7.010145E+01		1.000000E+00	0.000000E+00		1.000000E+00	0.000000E+00		1.000000E+00	0.000000E+00		
		9.848448E-01	-1.456066E+01		1.000000E+00	0.000000E+00		1.000000E+00	0.000000E+00		1.000000E+00	0.000000E+00		
		1.394925E-01	7.216392E+01		1.000000E+00	0.000000E+00		1.000000E+00	0.000000E+00		1.000000E+00	0.000000E+00		
		5.807978E-02	-1.228374E+02		1.000000E+00	0.000000E+00		1.000000E+00	0.000000E+00		1.000000E+00	0.000000E+00		

2.249994E+08		9.471396E-02	6.775020E+01		1.000000E+00	0.000000E+00		1.000000E+00	0.000000E+00		1.000000E+00	0.000000E+00		
		9.811784E-01	-1.631690E+01		1.000000E+00	0.000000E+00		1.000000E+00	0.000000E+00		1.000000E+00	0.000000E+00		
		1.553284E-01	7.005756E+01		1.000000E+00	0.000000E+00		1.000000E+00	0.000000E+00		1.000000E+00	0.000000E+00		
		6.472671E-02	-1.268119E+02		1.000000E+00	0.000000E+00		1.000000E+00	0.000000E+00		1.000000E+00	0.000000E+00		

2.499994E+08		1.038657E-01	6.544312E+01		1.000000E+00	0.000000E+00		1.000000E+00	0.000000E+00		1.000000E+00	0.000000E+00		
		9.772399E-01	-1.805349E+01		1.000000E+00	0.000000E+00		1.000000E+00	0.000000E+00		1.000000E+00	0.000000E+00		
		1.706654E-01	6.799078E+01		1.000000E+00	0.000000E+00		1.000000E+00	0.000000E+00		1.000000E+00	0.000000E+00		
		7.118459E-02	-1.307438E+02		1.000000E+00	0.000000E+00		1.000000E+00	0.000000E+00		1.000000E+00	0.000000E+00		

2.749993E+08		1.126428E-01	6.318383E+01		1.000000E+00	0.000000E+00		1.000000E+00	0.000000E+00		1.000000E+00	0.000000E+00		
		9.730716E-01	-1.976962E+01		1.000000E+00	0.000000E+00		1.000000E+00	0.000000E+00		1.000000E+00	0.000000E+00		
		1.854789E-01	6.596658E+01		1.000000E+00	0.000000E+00		1.000000E+00	0.000000E+00		1.000000E+00	0.000000E+00		
		7.744466E-02	-1.346292E+02		1.000000E+00	0.000000E+00		1.000000E+00	0.000000E+00		1.000000E+00	0.000000E+00		

2.999993E+08		1.210325E-01	6.097542E+01		1.000000E+00	0.000000E+00		1.000000E+00	0.000000E+00		1.000000E+00	0.000000E+00		
		9.687158E-01	-2.146476E+01		1.000000E+00	0.000000E+00		1.000000E+00	0.000000E+00		1.000000E+00	0.000000E+00		
		1.997515E-01	6.398746E+01		1.000000E+00	0.000000E+00		1.000000E+00	0.000000E+00		1.000000E+00	0.000000E+00		
		8.350058E-02	-1.384648E+02		1.000000E+00	0.000000E+00		1.000000E+00	0.000000E+00		1.000000E+00	0.000000E+00		

3.249992E+08		1.290258E-01	5.882041E+01		1.000000E+00	0.000000E+00		1.000000E+00	0.000000E+00		1.000000E+00	0.000000E+00		
		9.642132E-01	-2.313870E+01		1.000000E+00	0.000000E+00		1.000000E+00	0.000000E+00		1.000000E+00	0.000000E+00		
		2.134713E-01	6.205539E+01		1.000000E+00	0.000000E+00		1.000000E+00	0.000000E+00		1.000000E+00	0.000000E+00		
		8.934814E-02	-1.422480E+02		1.000000E+00	0.000000E+00		1.000000E+00	0.000000E+00		1.000000E+00	0.000000E+00		

3.499991E+08		1.366183E-01	5.672069E+01		1.000000E+00	0.000000E+00		1.000000E+00	0.000000E+00		1.000000E+00	0.000000E+00		
		9.596025E-01	-2.479142E+01		1.000000E+00	0.000000E+00		1.000000E+00	0.000000E+00		1.000000E+00	0.000000E+00		
		2.266329E-01	6.017156E+01		1.000000E+00	0.000000E+00		1.000000E+00	0.000000E+00		1.000000E+00	0.000000E+00		
		9.498543E-02	-1.459770E+02		1.000000E+00	0.000000E+00		1.000000E+00	0.000000E+00		1.000000E+00	0.000000E+00		

3.749991E+08		1.438093E-01	5.467743E+01		1.000000E+00	0.000000E+00		1.000000E+00	0.000000E+00		1.000000E+00	0.000000E+00		
		9.549193E-01	-2.642315E+01		1.000000E+00	0.000000E+00		1.000000E+00	0.000000E+00		1.000000E+00	0.000000E+00		
		2.392354E-01	5.833678E+01		1.000000E+00	0.000000E+00		1.000000E+00	0.000000E+00		1.000000E+00	0.000000E+00		
		1.004124E-01	-1.496507E+02		1.000000E+00	0.000000E+00		1.000000E+00	0.000000E+00		1.000000E+00	0.000000E+00		

3.999990E+08		1.506011E-01	5.269134E+01		1.000000E+00	0.000000E+00		1.000000E+00	0.000000E+00		1.000000E+00	0.000000E+00		
		9.501963E-01	-2.803432E+01		1.000000E+00	0.000000E+00		1.000000E+00	0.000000E+00		1.000000E+00	0.000000E+00		
		2.512829E-01	5.655132E+01		1.000000E+00	0.000000E+00		1.000000E+00	0.000000E+00		1.000000E+00	0.000000E+00		
		1.056311E-01	-1.532687E+02		1.000000E+00	0.000000E+00		1.000000E+00	0.000000E+00		1.000000E+00	0.000000E+00		

4.249989E+08		1.569990E-01	5.076257E+01		1.000000E+00	0.000000E+00		1.000000E+00	0.000000E+00		1.000000E+00	0.000000E+00		
		9.454624E-01	-2.962550E+01		1.000000E+00	0.000000E+00		1.000000E+00	0.000000E+00		1.000000E+00	0.000000E+00		
		2.627828E-01	5.481484E+01		1.000000E+00	0.000000E+00		1.000000E+00	0.000000E+00		1.000000E+00	0.000000E+00		
		1.106453E-01	-1.568311E+02		1.000000E+00	0.000000E+00		1.000000E+00	0.000000E+00		1.000000E+00	0.000000E+00		

4.499989E+08		1.630114E-01	4.889082E+01		1.000000E+00	0.000000E+00		1.000000E+00	0.000000E+00		1.000000E+00	0.000000E+00		
		9.407430E-01	-3.119740E+01		1.000000E+00	0.000000E+00		1.000000E+00	0.000000E+00		1.000000E+00	0.000000E+00		
		2.737468E-01	5.312670E+01		1.000000E+00	0.000000E+00		1.000000E+00	0.000000E+00		1.000000E+00	0.000000E+00		
		1.154603E-01	-1.603385E+02		1.000000E+00	0.000000E+00		1.000000E+00	0.000000E+00		1.000000E+00	0.000000E+00		

4.749988E+08		1.686483E-01	4.707542E+01		1.000000E+00	0.000000E+00		1.000000E+00	0.000000E+00		1.000000E+00	0.000000E+00		
		9.360599E-01	-3.275083E+01		1.000000E+00	0.000000E+00		1.000000E+00	0.000000E+00		1.000000E+00	0.000000E+00		
		2.841888E-01	5.148589E+01		1.000000E+00	0.000000E+00		1.000000E+00	0.000000E+00		1.000000E+00	0.000000E+00		
		1.200829E-01	-1.637919E+02		1.000000E+00	0.000000E+00		1.000000E+00	0.000000E+00		1.000000E+00	0.000000E+00		

4.999988E+08		1.739214E-01	4.531545E+01		1.000000E+00	0.000000E+00		1.000000E+00	0.000000E+00		1.000000E+00	0.000000E+00		
		9.314315E-01	-3.428667E+01		1.000000E+00	0.000000E+00		1.000000E+00	0.000000E+00		1.000000E+00	0.000000E+00		
		2.941247E-01	4.989118E+01		1.000000E+00	0.000000E+00		1.000000E+00	0.000000E+00		1.000000E+00	0.000000E+00		
		1.245210E-01	-1.671925E+02		1.000000E+00	0.000000E+00		1.000000E+00	0.000000E+00		1.000000E+00	0.000000E+00		

5.249987E+08		1.788443E-01	4.360984E+01		1.000000E+00	0.000000E+00		1.000000E+00	0.000000E+00		1.000000E+00	0.000000E+00		
		9.268735E-01	-3.580586E+01		1.000000E+00	0.000000E+00		1.000000E+00	0.000000E+00		1.000000E+00	0.000000E+00		
		3.035726E-01	4.834120E+01		1.000000E+00	0.000000E+00		1.000000E+00	0.000000E+00		1.000000E+00	0.000000E+00		
		1.287834E-01	-1.705414E+02		1.000000E+00	0.000000E+00		1.000000E+00	0.000000E+00		1.000000E+00	0.000000E+00		

5.499986E+08		1.834309E-01	4.195740E+01		1.000000E+00	0.000000E+00		1.000000E+00	0.000000E+00		1.000000E+00	0.000000E+00		
		9.223987E-01	-3.730939E+01		1.000000E+00	0.000000E+00		1.000000E+00	0.000000E+00		1.000000E+00	0.000000E+00		
		3.125514E-01	4.683447E+01		1.000000E+00	0.000000E+00		1.000000E+00	0.000000E+00		1.000000E+00	0.000000E+00		
		1.328792E-01	-1.738400E+02		1.000000E+00	0.000000E+00		1.000000E+00	0.000000E+00		1.000000E+00	0.000000E+00		

5.749986E+08		1.876960E-01	4.035692E+01		1.000000E+00	0.000000E+00		1.000000E+00	0.000000E+00		1.000000E+00	0.000000E+00		
		9.180177E-01	-3.879822E+01		1.000000E+00	0.000000E+00		1.000000E+00	0.000000E+00		1.000000E+00	0.000000E+00		
		3.210807E-01	4.536952E+01		1.000000E+00	0.000000E+00		1.000000E+00	0.000000E+00		1.000000E+00	0.000000E+00		
		1.368178E-01	-1.770894E+02		1.000000E+00	0.000000E+00		1.000000E+00	0.000000E+00		1.000000E+00	0.000000E+00		

5.999985E+08		1.916547E-01	3.880724E+01		1.000000E+00	0.000000E+00		1.000000E+00	0.000000E+00		1.000000E+00	0.000000E+00		
		9.137394E-01	-4.027335E+01		1.000000E+00	0.000000E+00		1.000000E+00	0.000000E+00		1.000000E+00	0.000000E+00		
		3.291800E-01	4.394488E+01		1.000000E+00	0.000000E+00		1.000000E+00	0.000000E+00		1.000000E+00	0.000000E+00		
		1.406082E-01	1.797094E+02		1.000000E+00	0.000000E+00		1.000000E+00	0.000000E+00		1.000000E+00	0.000000E+00		

6.249984E+08		1.953222E-01	3.730724E+01		1.000000E+00	0.000000E+00		1.000000E+00	0.000000E+00		1.000000E+00	0.000000E+00		
		9.095707E-01	-4.173573E+01		1.000000E+00	0.000000E+00		1.000000E+00	0.000000E+00		1.000000E+00	0.000000E+00		
		3.368692E-01	4.255915E+01		1.000000E+00	0.000000E+00		1.000000E+00	0.000000E+00		1.000000E+00	0.000000E+00		
		1.442595E-01	1.765548E+02		1.000000E+00	0.000000E+00		1.000000E+00	0.000000E+00		1.000000E+00	0.000000E+00		

6.499984E+08		1.987133E-01	3.585586E+01		1.000000E+00	0.000000E+00		1.000000E+00	0.000000E+00		1.000000E+00	0.000000E+00		
		9.055175E-01	-4.318632E+01		1.000000E+00	0.000000E+00		1.000000E+00	0.000000E+00		1.000000E+00	0.000000E+00		
		3.441672E-01	4.121095E+01		1.000000E+00	0.000000E+00		1.000000E+00	0.000000E+00		1.000000E+00	0.000000E+00		
		1.477798E-01	1.734459E+02		1.000000E+00	0.000000E+00		1.000000E+00	0.000000E+00		1.000000E+00	0.000000E+00		

6.749983E+08		2.018429E-01	3.445204E+01		1.000000E+00	0.000000E+00		1.000000E+00	0.000000E+00		1.000000E+00	0.000000E+00		
		9.015842E-01	-4.462600E+01		1.000000E+00	0.000000E+00		1.000000E+00	0.000000E+00		1.000000E+00	0.000000E+00		
		3.510927E-01	3.989898E+01		1.000000E+00	0.000000E+00		1.000000E+00	0.000000E+00		1.000000E+00	0.000000E+00		
		1.511771E-01	1.703817E+02		1.000000E+00	0.000000E+00		1.000000E+00	0.000000E+00		1.000000E+00	0.000000E+00		

6.999983E+08		2.047251E-01	3.309480E+01		1.000000E+00	0.000000E+00		1.000000E+00	0.000000E+00		1.000000E+00	0.000000E+00		
		8.977741E-01	-4.605565E+01		1.000000E+00	0.000000E+00		1.000000E+00	0.000000E+00		1.000000E+00	0.000000E+00		
		3.576634E-01	3.862194E+01		1.000000E+00	0.000000E+00		1.000000E+00	0.000000E+00		1.000000E+00	0.000000E+00		
		1.544584E-01	1.673612E+02		1.000000E+00	0.000000E+00		1.000000E+00	0.000000E+00		1.000000E+00	0.000000E+00		

7.249982E+08		2.073736E-01	3.178311E+01		1.000000E+00	0.000000E+00		1.000000E+00	0.000000E+00		1.000000E+00	0.000000E+00		
		8.940894E-01	-4.747607E+01		1.000000E+00	0.000000E+00		1.000000E+00	0.000000E+00		1.000000E+00	0.000000E+00		
		3.638963E-01	3.737857E+01		1.000000E+00	0.000000E+00		1.000000E+00	0.000000E+00		1.000000E+00	0.000000E+00		
		1.576306E-01	1.643832E+02		1.000000E+00	0.000000E+00		1.000000E+00	0.000000E+00		1.000000E+00	0.000000E+00		

7.499981E+08		2.098019E-01	3.051588E+01		1.000000E+00	0.000000E+00		1.000000E+00	0.000000E+00		1.000000E+00	0.000000E+00		
		8.905312E-01	-4.888803E+01		1.000000E+00	0.000000E+00		1.000000E+00	0.000000E+00		1.000000E+00	0.000000E+00		
		3.698075E-01	3.616755E+01		1.000000E+00	0.000000E+00		1.000000E+00	0.000000E+00		1.000000E+00	0.000000E+00		
		1.607000E-01	1.614463E+02		1.000000E+00	0.000000E+00		1.000000E+00	0.000000E+00		1.000000E+00	0.000000E+00		

7.749981E+08		2.120233E-01	2.929200E+01		1.000000E+00	0.000000E+00		1.000000E+00	0.000000E+00		1.000000E+00	0.000000E+00		
		8.870997E-01	-5.029225E+01		1.000000E+00	0.000000E+00		1.000000E+00	0.000000E+00		1.000000E+00	0.000000E+00		
		3.754128E-01	3.498757E+01		1.000000E+00	0.000000E+00		1.000000E+00	0.000000E+00		1.000000E+00	0.000000E+00		
		1.636734E-01	1.585494E+02		1.000000E+00	0.000000E+00		1.000000E+00	0.000000E+00		1.000000E+00	0.000000E+00		

7.999980E+08		2.140501E-01	2.811023E+01		1.000000E+00	0.000000E+00		1.000000E+00	0.000000E+00		1.000000E+00	0.000000E+00		
		8.837939E-01	-5.168940E+01		1.000000E+00	0.000000E+00		1.000000E+00	0.000000E+00		1.000000E+00	0.000000E+00		
		3.807268E-01	3.383725E+01		1.000000E+00	0.000000E+00		1.000000E+00	0.000000E+00		1.000000E+00	0.000000E+00		
		1.665567E-01	1.556909E+02		1.000000E+00	0.000000E+00		1.000000E+00	0.000000E+00		1.000000E+00	0.000000E+00		

8.249979E+08		2.158952E-01	2.696928E+01		1.000000E+00	0.000000E+00		1.000000E+00	0.000000E+00		1.000000E+00	0.000000E+00		
		8.806119E-01	-5.308013E+01		1.000000E+00	0.000000E+00		1.000000E+00	0.000000E+00		1.000000E+00	0.000000E+00		
		3.857640E-01	3.271521E+01		1.000000E+00	0.000000E+00		1.000000E+00	0.000000E+00		1.000000E+00	0.000000E+00		
		1.693562E-01	1.528696E+02		1.000000E+00	0.000000E+00		1.000000E+00	0.000000E+00		1.000000E+00	0.000000E+00		

8.499979E+08		2.175702E-01	2.586776E+01		1.000000E+00	0.000000E+00		1.000000E+00	0.000000E+00		1.000000E+00	0.000000E+00		
		8.775513E-01	-5.446502E+01		1.000000E+00	0.000000E+00		1.000000E+00	0.000000E+00		1.000000E+00	0.000000E+00		
		3.905379E-01	3.162000E+01		1.000000E+00	0.000000E+00		1.000000E+00	0.000000E+00		1.000000E+00	0.000000E+00		
		1.720783E-01	1.500840E+02		1.000000E+00	0.000000E+00		1.000000E+00	0.000000E+00		1.000000E+00	0.000000E+00		

8.749978E+08		2.190874E-01	2.480425E+01		1.000000E+00	0.000000E+00		1.000000E+00	0.000000E+00		1.000000E+00	0.000000E+00		
		8.746086E-01	-5.584462E+01		1.000000E+00	0.000000E+00		1.000000E+00	0.000000E+00		1.000000E+00	0.000000E+00		
		3.950617E-01	3.055021E+01		1.000000E+00	0.000000E+00		1.000000E+00	0.000000E+00		1.000000E+00	0.000000E+00		
		1.747296E-01	1.473327E+02		1.000000E+00	0.000000E+00		1.000000E+00	0.000000E+00		1.000000E+00	0.000000E+00		

8.999978E+08		2.204583E-01	2.377730E+01		1.000000E+00	0.000000E+00		1.000000E+00	0.000000E+00		1.000000E+00	0.000000E+00		
		8.717804E-01	-5.721946E+01		1.000000E+00	0.000000E+00		1.000000E+00	0.000000E+00		1.000000E+00	0.000000E+00		
		3.993481E-01	2.950442E+01		1.000000E+00	0.000000E+00		1.000000E+00	0.000000E+00		1.000000E+00	0.000000E+00		
		1.773162E-01	1.446143E+02		1.000000E+00	0.000000E+00		1.000000E+00	0.000000E+00		1.000000E+00	0.000000E+00		

9.249977E+08		2.216935E-01	2.278547E+01		1.000000E+00	0.000000E+00		1.000000E+00	0.000000E+00		1.000000E+00	0.000000E+00		
		8.690627E-01	-5.859003E+01		1.000000E+00	0.000000E+00		1.000000E+00	0.000000E+00		1.000000E+00	0.000000E+00		
		4.034089E-01	2.848127E+01		1.000000E+00	0.000000E+00		1.000000E+00	0.000000E+00		1.000000E+00	0.000000E+00		
		1.798444E-01	1.419276E+02		1.000000E+00	0.000000E+00		1.000000E+00	0.000000E+00		1.000000E+00	0.000000E+00		

9.499976E+08		2.228040E-01	2.182738E+01		1.000000E+00	0.000000E+00		1.000000E+00	0.000000E+00		1.000000E+00	0.000000E+00		
		8.664514E-01	-5.995676E+01		1.000000E+00	0.000000E+00		1.000000E+00	0.000000E+00		1.000000E+00	0.000000E+00		
		4.072555E-01	2.747949E+01		1.000000E+00	0.000000E+00		1.000000E+00	0.000000E+00		1.000000E+00	0.000000E+00		
		1.823199E-01	1.392714E+02		1.000000E+00	0.000000E+00		1.000000E+00	0.000000E+00		1.000000E+00	0.000000E+00		

9.749976E+08		2.238000E-01	2.090171E+01		1.000000E+00	0.000000E+00		1.000000E+00	0.000000E+00		1.000000E+00	0.000000E+00		
		8.639426E-01	-6.132006E+01		1.000000E+00	0.000000E+00		1.000000E+00	0.000000E+00		1.000000E+00	0.000000E+00		
		4.108983E-01	2.649787E+01		1.000000E+00	0.000000E+00		1.000000E+00	0.000000E+00		1.000000E+00	0.000000E+00		
		1.847479E-01	1.366447E+02		1.000000E+00	0.000000E+00		1.000000E+00	0.000000E+00		1.000000E+00	0.000000E+00		

9.999975E+08		2.246904E-01	2.000723E+01		1.000000E+00	0.000000E+00		1.000000E+00	0.000000E+00		1.000000E+00	0.000000E+00		
		8.615329E-01	-6.268032E+01		1.000000E+00	0.000000E+00		1.000000E+00	0.000000E+00		1.000000E+00	0.000000E+00		
		4.143470E-01	2.553534E+01		1.000000E+00	0.000000E+00		1.000000E+00	0.000000E+00		1.000000E+00	0.000000E+00		
		1.871333E-01	1.340465E+02		1.000000E+00	0.000000E+00		1.000000E+00	0.000000E+00		1.000000E+00	0.000000E+00		

1.024997E+09		2.254844E-01	1.914282E+01		1.000000E+00	0.000000E+00		1.000000E+00	0.000000E+00		1.000000E+00	0.000000E+00		
		8.592187E-01	-6.403789E+01		1.000000E+00	0.000000E+00		1.000000E+00	0.000000E+00		1.000000E+00	0.000000E+00		
		4.176101E-01	2.459093E+01		1.000000E+00	0.000000E+00		1.000000E+00	0.000000E+00		1.000000E+00	0.000000E+00		
		1.894798E-01	1.314757E+02		1.000000E+00	0.000000E+00		1.000000E+00	0.000000E+00		1.000000E+00	0.000000E+00		

1.049997E+09		2.261901E-01	1.830743E+01		1.000000E+00	0.000000E+00		1.000000E+00	0.000000E+00		1.000000E+00	0.000000E+00		
		8.569968E-01	-6.539305E+01		1.000000E+00	0.000000E+00		1.000000E+00	0.000000E+00		1.000000E+00	0.000000E+00		
		4.206957E-01	2.366377E+01		1.000000E+00	0.000000E+00		1.000000E+00	0.000000E+00		1.000000E+00	0.000000E+00		
		1.917911E-01	1.289316E+02		1.000000E+00	0.000000E+00		1.000000E+00	0.000000E+00		1.000000E+00	0.000000E+00		

1.074997E+09		2.268151E-01	1.750009E+01		1.000000E+00	0.000000E+00		1.000000E+00	0.000000E+00		1.000000E+00	0.000000E+00		
		8.548646E-01	-6.674609E+01		1.000000E+00	0.000000E+00		1.000000E+00	0.000000E+00		1.000000E+00	0.000000E+00		
